time	V(in)	V(out)
0.000000000000000e+000	0.000000e+000	0.000000e+000
1.000000000000000e-006	0.000000e+000	0.000000e+000
1.011300737249399e-006	-2.259150e-002	-3.872639e-008
1.022601474498797e-006	-4.518299e-002	-1.981331e-008
1.033902211748196e-006	-6.777449e-002	5.673924e-008
1.045202948997595e-006	-9.036599e-002	1.909313e-007
1.056503686246993e-006	-1.129575e-001	3.827628e-007
1.067804423496392e-006	-1.355490e-001	6.322337e-007
1.079105160745791e-006	-1.581405e-001	9.393441e-007
1.158833196773045e-006	-3.175262e-001	6.799810e-006
1.239628502525132e-006	-4.790455e-001	2.186305e-005
1.326409992709352e-006	-6.525319e-001	5.417276e-005
1.407432790524714e-006	-8.145061e-001	9.902709e-005
1.431757366238338e-006	-8.631337e-001	1.193150e-004
1.459556881339623e-006	-9.187082e-001	1.460416e-004
1.500000000000000e-006	-9.995587e-001	1.887400e-004
1.532196238263882e-006	-9.995587e-001	2.314413e-004
1.564392476527763e-006	-9.995587e-001	2.795568e-004
1.596588714791644e-006	-9.995587e-001	3.330867e-004
1.628784953055526e-006	-9.995587e-001	3.920308e-004
1.660981191319407e-006	-9.995587e-001	4.563893e-004
1.693177429583289e-006	-9.995587e-001	5.261621e-004
1.725373667847170e-006	-9.995587e-001	6.013492e-004
1.825373667847170e-006	-9.995587e-001	8.630762e-004
1.925373667847170e-006	-9.995587e-001	1.175786e-003
2.025373667847170e-006	-9.995587e-001	1.538724e-003
2.125373667847170e-006	-9.995587e-001	1.951146e-003
2.225373667847170e-006	-9.995587e-001	2.412313e-003
2.325373667847169e-006	-9.995587e-001	2.921497e-003
2.425373667847169e-006	-9.995587e-001	3.477974e-003
2.525373667847169e-006	-9.995587e-001	4.081031e-003
2.625373667847169e-006	-9.995587e-001	4.729961e-003
2.825373667847169e-006	-9.995587e-001	6.162652e-003
3.025373667847169e-006	-9.995587e-001	7.770545e-003
3.225373667847168e-006	-9.995587e-001	9.548254e-003
3.425373667847168e-006	-9.995587e-001	1.149051e-002
3.725373667847168e-006	-9.995587e-001	1.470117e-002
4.025373667847168e-006	-9.995587e-001	1.825356e-002
4.325373667847167e-006	-9.995587e-001	2.213128e-002
4.636034572440429e-006	-9.995587e-001	2.651275e-002
4.946695477033692e-006	-9.995587e-001	3.116898e-002
5.257356381626953e-006	-9.995587e-001	3.609999e-002
5.568017286220215e-006	-9.995587e-001	4.130577e-002
5.878678190813477e-006	-9.995587e-001	4.678631e-002
6.189339095406739e-006	-9.995587e-001	5.254163e-002
6.500000000000000e-006	-9.995587e-001	5.857171e-002
6.570000000000000e-006	-8.596206e-001	5.995524e-002
6.750000000000000e-006	-4.997794e-001	6.353861e-002
6.900000000000001e-006	-1.999118e-001	6.652306e-002
7.000000000000001e-006	3.422138e-009	6.849623e-002
7.030000000000001e-006	1.500940e-008	6.908175e-002
7.675714285714291e-006	1.687365e-008	8.081225e-002
8.321428571428580e-006	1.829604e-008	9.149137e-002
8.967142857142871e-006	1.927656e-008	1.011191e-001
9.612857142857160e-006	1.981521e-008	1.096954e-001
1.025857142857145e-005	1.991200e-008	1.172204e-001
1.090428571428574e-005	1.956692e-008	1.236940e-001
1.155000000000003e-005	1.877997e-008	1.291161e-001
1.220714285714289e-005	1.870003e-008	1.338653e-001
1.286428571428575e-005	1.862043e-008	1.379824e-001
1.352142857142861e-005	1.854118e-008	1.414674e-001
1.417857142857147e-005	1.846228e-008	1.443204e-001
1.483571428571433e-005	1.838372e-008	1.465412e-001
1.549285714285719e-005	1.830552e-008	1.481300e-001
1.615000000000005e-005	1.822767e-008	1.490866e-001
1.677857142857147e-005	1.815352e-008	1.496121e-001
1.740714285714289e-005	1.807968e-008	1.498216e-001
1.803571428571432e-005	1.800614e-008	1.497152e-001
1.866428571428574e-005	1.793292e-008	1.492928e-001
1.929285714285716e-005	1.786000e-008	1.485546e-001
1.992142857142858e-005	1.778738e-008	1.475004e-001
2.055000000000001e-005	1.771508e-008	1.461302e-001
2.145000000000000e-005	1.761208e-008	1.437595e-001
2.234999999999999e-005	1.750968e-008	1.411188e-001
2.324999999999998e-005	1.740789e-008	1.382082e-001
2.414999999999997e-005	1.730670e-008	1.350277e-001
2.504999999999997e-005	1.720611e-008	1.315772e-001
2.594999999999995e-005	1.710612e-008	1.278568e-001
2.684999999999995e-005	1.700673e-008	1.238664e-001
2.789285714285710e-005	1.689231e-008	1.191301e-001
2.893571428571425e-005	1.677865e-008	1.143578e-001
2.997857142857140e-005	1.666576e-008	1.095496e-001
3.102142857142855e-005	1.655364e-008	1.047054e-001
3.206428571428570e-005	1.644228e-008	9.982535e-002
3.310714285714285e-005	1.633169e-008	9.490932e-002
3.415000000000000e-005	1.622187e-008	8.995736e-002
3.499285714285716e-005	1.613365e-008	8.603861e-002
3.583571428571432e-005	1.604591e-008	8.218230e-002
3.667857142857149e-005	1.595865e-008	7.838843e-002
3.752142857142865e-005	1.587186e-008	7.465700e-002
3.836428571428582e-005	1.578555e-008	7.098801e-002
3.920714285714298e-005	1.569972e-008	6.738145e-002
4.005000000000014e-005	1.561436e-008	6.383734e-002
4.079285714285730e-005	1.553952e-008	6.078895e-002
4.153571428571446e-005	1.546504e-008	5.780757e-002
4.227857142857162e-005	1.539091e-008	5.489319e-002
4.302142857142879e-005	1.531714e-008	5.204582e-002
4.376428571428595e-005	1.524373e-008	4.926546e-002
4.450714285714311e-005	1.517067e-008	4.655211e-002
4.525000000000027e-005	1.509797e-008	4.390577e-002
4.643571428571458e-005	1.498266e-008	3.983514e-002
4.762142857142890e-005	1.486822e-008	3.593629e-002
4.880714285714321e-005	1.475465e-008	3.220921e-002
4.999285714285752e-005	1.464195e-008	2.865391e-002
5.117857142857184e-005	1.453011e-008	2.527038e-002
5.236428571428616e-005	1.441914e-008	2.205863e-002
5.355000000000047e-005	1.430904e-008	1.901866e-002
5.483571428571478e-005	1.419061e-008	1.591080e-002
5.612142857142910e-005	1.407314e-008	1.296765e-002
5.740714285714342e-005	1.395663e-008	1.018921e-002
5.869285714285774e-005	1.384109e-008	7.575471e-003
5.997857142857205e-005	1.372651e-008	5.126442e-003
6.126428571428637e-005	1.361289e-008	2.842120e-003
6.255000000000068e-005	1.350024e-008	7.225041e-004
6.373571428571499e-005	1.339717e-008	-1.110315e-003
6.492142857142931e-005	1.329487e-008	-2.841474e-003
6.610714285714363e-005	1.319335e-008	-4.470974e-003
6.729285714285794e-005	1.309260e-008	-5.998815e-003
6.847857142857226e-005	1.299262e-008	-7.424997e-003
6.966428571428657e-005	1.289342e-008	-8.749520e-003
7.085000000000088e-005	1.279499e-008	-9.972383e-003
7.273571428571521e-005	1.264003e-008	-1.172648e-002
7.462142857142954e-005	1.248690e-008	-1.332203e-002
7.650714285714388e-005	1.233559e-008	-1.475904e-002
7.839285714285821e-005	1.218610e-008	-1.603750e-002
8.027857142857254e-005	1.203843e-008	-1.715741e-002
8.216428571428687e-005	1.189259e-008	-1.811878e-002
8.405000000000120e-005	1.174857e-008	-1.892160e-002
8.609285714285840e-005	1.159453e-008	-1.967576e-002
8.813571428571559e-005	1.144244e-008	-2.033865e-002
9.017857142857278e-005	1.129230e-008	-2.091027e-002
9.222142857142997e-005	1.114413e-008	-2.139063e-002
9.426428571428717e-005	1.099791e-008	-2.177972e-002
9.630714285714437e-005	1.085365e-008	-2.207755e-002
9.835000000000155e-005	1.071134e-008	-2.228411e-002
9.845000000000155e-005	1.070442e-008	-2.229381e-002
1.022071428571445e-004	1.044796e-008	-2.249957e-002
1.059642857142875e-004	1.019731e-008	-2.260993e-002
1.097214285714304e-004	9.952454e-009	-2.262488e-002
1.134785714285734e-004	9.713402e-009	-2.254443e-002
1.172357142857163e-004	9.480154e-009	-2.236858e-002
1.209928571428593e-004	9.252707e-009	-2.209733e-002
1.247500000000022e-004	9.031064e-009	-2.173067e-002
1.322500000000024e-004	8.605947e-009	-2.094496e-002
1.397500000000026e-004	8.198790e-009	-2.015357e-002
1.472500000000027e-004	7.809592e-009	-1.935651e-002
1.547500000000029e-004	7.438352e-009	-1.855376e-002
1.622500000000031e-004	7.085072e-009	-1.774534e-002
1.697500000000033e-004	6.749751e-009	-1.693123e-002
1.772500000000035e-004	6.432389e-009	-1.611145e-002
1.806071428571464e-004	6.294475e-009	-1.577156e-002
1.839642857142894e-004	6.159369e-009	-1.543791e-002
1.873214285714323e-004	6.027071e-009	-1.511051e-002
1.906785714285752e-004	5.897582e-009	-1.478937e-002
1.940357142857182e-004	5.770902e-009	-1.447447e-002
1.973928571428611e-004	5.647030e-009	-1.416582e-002
2.007500000000040e-004	5.525967e-009	-1.386343e-002
2.008500000000040e-004	5.522396e-009	-1.385451e-002
2.152500000000044e-004	5.040050e-009	-1.264674e-002
2.296500000000047e-004	4.592592e-009	-1.152591e-002
2.440500000000051e-004	4.180022e-009	-1.049202e-002
2.584500000000054e-004	3.802339e-009	-9.545067e-003
2.728500000000058e-004	3.459544e-009	-8.685056e-003
2.872500000000061e-004	3.151637e-009	-7.911985e-003
3.016500000000065e-004	2.878618e-009	-7.225853e-003
3.032500000000065e-004	2.849003e-009	-7.151514e-003
3.178642857142926e-004	2.596747e-009	-6.518309e-003
3.324785714285787e-004	2.362945e-009	-5.931427e-003
3.470928571428647e-004	2.147598e-009	-5.390867e-003
3.617071428571508e-004	1.950704e-009	-4.896630e-003
3.763214285714369e-004	1.772265e-009	-4.448716e-003
3.909357142857230e-004	1.612281e-009	-4.047124e-003
4.055500000000090e-004	1.470750e-009	-3.691855e-003
4.056500000000090e-004	1.469800e-009	-3.689469e-003
4.202642857142936e-004	1.339661e-009	-3.362797e-003
4.348785714285781e-004	1.219043e-009	-3.060023e-003
4.494928571428627e-004	1.107945e-009	-2.781147e-003
4.641071428571472e-004	1.006368e-009	-2.526170e-003
4.787214285714318e-004	9.143113e-010	-2.295091e-003
4.933357142857163e-004	8.317751e-010	-2.087910e-003
5.079500000000008e-004	7.587595e-010	-1.904627e-003
5.080500000000008e-004	7.582692e-010	-1.903396e-003
5.226642857142789e-004	6.911307e-010	-1.734866e-003
5.372785714285571e-004	6.289038e-010	-1.578665e-003
5.518928571428352e-004	5.715886e-010	-1.434793e-003
5.665071428571134e-004	5.191849e-010	-1.303250e-003
5.811214285713916e-004	4.716929e-010	-1.184037e-003
5.957357142856697e-004	4.291126e-010	-1.077152e-003
6.103499999999478e-004	3.914438e-010	-9.825965e-004
6.104499999999478e-004	3.911909e-010	-9.819617e-004
6.250642857142259e-004	3.565542e-010	-8.950170e-004
6.396785714285041e-004	3.244513e-010	-8.144329e-004
6.542928571427822e-004	2.948824e-010	-7.402094e-004
6.689071428570603e-004	2.678474e-010	-6.723465e-004
6.835214285713386e-004	2.433462e-010	-6.108442e-004
6.981357142856167e-004	2.213791e-010	-5.557025e-004
7.127499999998948e-004	2.019458e-010	-5.069213e-004
7.128499999998947e-004	2.018153e-010	-5.065938e-004
7.274642857141729e-004	1.839462e-010	-4.617391e-004
7.420785714284511e-004	1.673843e-010	-4.201657e-004
7.566928571427292e-004	1.521297e-010	-3.818739e-004
7.713071428570073e-004	1.381824e-010	-3.468634e-004
7.859214285712855e-004	1.255423e-010	-3.151344e-004
8.005357142855636e-004	1.142094e-010	-2.866867e-004
8.151499999998418e-004	1.041838e-010	-2.615206e-004
8.152499999998417e-004	1.041165e-010	-2.613516e-004
8.298642857141198e-004	9.489779e-011	-2.382110e-004
8.444785714283981e-004	8.635354e-011	-2.167634e-004
8.590928571426762e-004	7.848370e-011	-1.970086e-004
8.737071428569543e-004	7.128826e-011	-1.789467e-004
8.883214285712325e-004	6.476723e-011	-1.625777e-004
9.029357142855106e-004	5.892060e-011	-1.479016e-004
9.175499999997887e-004	5.374838e-011	-1.349184e-004
9.176499999997887e-004	5.371365e-011	-1.348312e-004
9.295571428569617e-004	4.978358e-011	-1.249660e-004
9.414642857141348e-004	4.609819e-011	-1.157150e-004
9.533714285713078e-004	4.265751e-011	-1.070782e-004
9.652785714284809e-004	3.946152e-011	-9.905572e-005
9.771857142856538e-004	3.651022e-011	-9.164743e-005
9.890928571428270e-004	3.380362e-011	-8.485337e-005
1.001000000000000e-003	3.134172e-011	-7.867354e-005
1.001030000000000e-003	-5.997352e-002	-7.862478e-005
1.001059440478284e-003	-1.188285e-001	-7.843677e-005
1.001089443134068e-003	-1.788073e-001	-7.771341e-005
1.001149448445636e-003	-2.987650e-001	-7.345046e-005
1.001226334096665e-003	-4.524685e-001	-6.029598e-005
1.001313009364140e-003	-6.257425e-001	-3.073210e-005
1.001393820579932e-003	-7.872936e-001	1.191724e-005
1.001415183225087e-003	-8.300000e-001	2.750121e-005
1.001457908515398e-003	-9.154130e-001	6.670031e-005
1.001500000000000e-003	-9.995587e-001	1.103346e-004
1.001532926228895e-003	-9.995587e-001	1.541516e-004
1.001565852457791e-003	-9.995587e-001	2.036001e-004
1.001598778686686e-003	-9.995587e-001	2.586801e-004
1.001631704915582e-003	-9.995587e-001	3.193916e-004
1.001664631144477e-003	-9.995587e-001	3.857345e-004
1.001697557373373e-003	-9.995587e-001	4.577090e-004
1.001730483602268e-003	-9.995587e-001	5.353149e-004
1.001830483602268e-003	-9.995587e-001	7.997686e-004
1.001930483602268e-003	-9.995587e-001	1.115165e-003
1.002030483602268e-003	-9.995587e-001	1.480752e-003
1.002130483602268e-003	-9.995587e-001	1.895783e-003
1.002230483602268e-003	-9.995587e-001	2.359522e-003
1.002330483602268e-003	-9.995587e-001	2.871238e-003
1.002430483602268e-003	-9.995587e-001	3.430211e-003
1.002530483602268e-003	-9.995587e-001	4.035727e-003
1.002630483602268e-003	-9.995587e-001	4.687080e-003
1.002830483602268e-003	-9.995587e-001	6.124507e-003
1.003030483602269e-003	-9.995587e-001	7.736993e-003
1.003230483602269e-003	-9.995587e-001	9.519158e-003
1.003430483602269e-003	-9.995587e-001	1.146573e-002
1.003730483602269e-003	-9.995587e-001	1.468263e-002
1.004030483602269e-003	-9.995587e-001	1.824095e-002
1.004330483602269e-003	-9.995587e-001	2.212434e-002
1.004640414516231e-003	-9.995587e-001	2.650051e-002
1.004950345430192e-003	-9.995587e-001	3.115002e-002
1.005260276344154e-003	-9.995587e-001	3.607287e-002
1.005570207258115e-003	-9.995587e-001	4.126907e-002
1.005880138172077e-003	-9.995587e-001	4.673861e-002
1.006190069086038e-003	-9.995587e-001	5.248149e-002
1.006500000000000e-003	-9.995587e-001	5.849771e-002
1.006570000000000e-003	-8.596206e-001	5.988128e-002
1.006750000000000e-003	-4.997794e-001	6.346478e-002
1.006900000000000e-003	-1.999118e-001	6.644934e-002
1.007000000000000e-003	3.452635e-009	6.842259e-002
1.007030000000000e-003	1.503988e-008	6.900812e-002
1.007675714285715e-003	1.690401e-008	8.073907e-002
1.008321428571429e-003	1.832627e-008	9.141862e-002
1.008967142857144e-003	1.930667e-008	1.010468e-001
1.009612857142858e-003	1.984520e-008	1.096235e-001
1.010258571428573e-003	1.994186e-008	1.171488e-001
1.010904285714288e-003	1.959666e-008	1.236228e-001
1.011550000000002e-003	1.880959e-008	1.290453e-001
1.012207142857146e-003	1.872951e-008	1.337948e-001
1.012864285714289e-003	1.864979e-008	1.379122e-001
1.013521428571432e-003	1.857041e-008	1.413976e-001
1.014178571428575e-003	1.849139e-008	1.442508e-001
1.014835714285718e-003	1.841271e-008	1.464720e-001
1.015492857142862e-003	1.833439e-008	1.480611e-001
1.016150000000005e-003	1.825641e-008	1.490180e-001
1.016464285714291e-003	1.821924e-008	1.493587e-001
1.016778571428577e-003	1.818214e-008	1.496076e-001
1.017092857142863e-003	1.814512e-008	1.497646e-001
1.017407142857149e-003	1.810818e-008	1.498297e-001
1.017721428571435e-003	1.807132e-008	1.498030e-001
1.018035714285720e-003	1.803454e-008	1.496845e-001
1.018350000000006e-003	1.799783e-008	1.494741e-001
1.018450000000006e-003	1.798617e-008	1.493937e-001
1.019221428571435e-003	1.789646e-008	1.484167e-001
1.019992857142864e-003	1.780720e-008	1.471291e-001
1.020764285714293e-003	1.771840e-008	1.455309e-001
1.021535714285722e-003	1.763005e-008	1.436221e-001
1.022307142857151e-003	1.754215e-008	1.414027e-001
1.023078571428580e-003	1.745470e-008	1.388727e-001
1.023850000000009e-003	1.736771e-008	1.360321e-001
1.024935714285724e-003	1.724603e-008	1.317165e-001
1.026021428571439e-003	1.712520e-008	1.272466e-001
1.027107142857154e-003	1.700523e-008	1.226226e-001
1.028192857142869e-003	1.688610e-008	1.178443e-001
1.029278571428584e-003	1.676782e-008	1.129119e-001
1.030364285714299e-003	1.665040e-008	1.078252e-001
1.031450000000014e-003	1.653383e-008	1.025843e-001
1.032392857142871e-003	1.643326e-008	9.810020e-002
1.033335714285729e-003	1.633330e-008	9.366749e-002
1.034278571428587e-003	1.623395e-008	8.928621e-002
1.035221428571444e-003	1.613521e-008	8.495634e-002
1.036164285714302e-003	1.603707e-008	8.067790e-002
1.037107142857160e-003	1.593955e-008	7.645088e-002
1.038050000000017e-003	1.584263e-008	7.227528e-002
1.038707142857161e-003	1.577543e-008	6.943290e-002
1.039364285714304e-003	1.570852e-008	6.663924e-002
1.040021428571447e-003	1.564189e-008	6.389428e-002
1.040678571428590e-003	1.557554e-008	6.119804e-002
1.041335714285733e-003	1.550948e-008	5.855050e-002
1.041992857142877e-003	1.544370e-008	5.595168e-002
1.042650000000020e-003	1.537820e-008	5.340156e-002
1.043578571428592e-003	1.528613e-008	4.989217e-002
1.044507142857164e-003	1.519461e-008	4.649081e-002
1.045435714285736e-003	1.510364e-008	4.319749e-002
1.046364285714308e-003	1.501321e-008	4.001219e-002
1.047292857142880e-003	1.492332e-008	3.693494e-002
1.048221428571452e-003	1.483398e-008	3.396571e-002
1.049150000000024e-003	1.474519e-008	3.110452e-002
1.050635714285739e-003	1.460425e-008	2.676861e-002
1.052121428571454e-003	1.446463e-008	2.267708e-002
1.053607142857169e-003	1.432633e-008	1.882991e-002
1.055092857142884e-003	1.418935e-008	1.522710e-002
1.056578571428599e-003	1.405369e-008	1.186867e-002
1.058064285714315e-003	1.391935e-008	8.754604e-003
1.059550000000030e-003	1.378632e-008	5.884905e-003
1.060750000000030e-003	1.367981e-008	3.714950e-003
1.061950000000031e-003	1.357409e-008	1.662215e-003
1.063150000000032e-003	1.346919e-008	-2.733005e-004
1.064350000000032e-003	1.336510e-008	-2.091596e-003
1.065550000000033e-003	1.326182e-008	-3.792672e-003
1.066750000000034e-003	1.315934e-008	-5.376528e-003
1.067950000000034e-003	1.305767e-008	-6.843164e-003
1.069635714285750e-003	1.291620e-008	-8.726788e-003
1.071321428571465e-003	1.277622e-008	-1.046026e-002
1.073007142857180e-003	1.263774e-008	-1.204357e-002
1.074692857142895e-003	1.250075e-008	-1.347672e-002
1.076378571428610e-003	1.236525e-008	-1.475971e-002
1.078064285714326e-003	1.223125e-008	-1.589255e-002
1.079750000000041e-003	1.209874e-008	-1.687523e-002
1.082178571428614e-003	1.191042e-008	-1.808544e-002
1.084607142857187e-003	1.172492e-008	-1.914349e-002
1.087035714285759e-003	1.154224e-008	-2.004939e-002
1.089464285714332e-003	1.136238e-008	-2.080313e-002
1.091892857142905e-003	1.118535e-008	-2.140471e-002
1.094321428571478e-003	1.101115e-008	-2.185414e-002
1.096750000000051e-003	1.083976e-008	-2.215141e-002
1.100178571428624e-003	1.060247e-008	-2.242708e-002
1.103607142857197e-003	1.037010e-008	-2.260847e-002
1.107035714285771e-003	1.014267e-008	-2.269556e-002
1.110464285714344e-003	9.920158e-009	-2.268836e-002
1.113892857142917e-003	9.702580e-009	-2.258687e-002
1.117321428571491e-003	9.489931e-009	-2.239109e-002
1.120750000000064e-003	9.282211e-009	-2.210102e-002
1.120850000000064e-003	9.276214e-009	-2.209326e-002
1.127492857142925e-003	8.887981e-009	-2.145215e-002
1.134135714285786e-003	8.514494e-009	-2.079054e-002
1.140778571428647e-003	8.155753e-009	-2.010842e-002
1.147421428571508e-003	7.811758e-009	-1.940579e-002
1.154064285714369e-003	7.482508e-009	-1.868265e-002
1.160707142857230e-003	7.168005e-009	-1.793900e-002
1.167350000000091e-003	6.868248e-009	-1.717484e-002
1.175321428571524e-003	6.525356e-009	-1.633473e-002
1.183292857142957e-003	6.197734e-009	-1.552913e-002
1.191264285714390e-003	5.885383e-009	-1.475803e-002
1.199235714285823e-003	5.588303e-009	-1.402143e-002
1.207207142857256e-003	5.306494e-009	-1.331934e-002
1.215178571428689e-003	5.039955e-009	-1.265175e-002
1.223150000000122e-003	4.788687e-009	-1.201866e-002
1.223250000000122e-003	4.785593e-009	-1.201091e-002
1.237692857142988e-003	4.366454e-009	-1.095950e-002
1.252135714285853e-003	3.977700e-009	-9.984216e-003
1.266578571428718e-003	3.619333e-009	-9.085055e-003
1.281021428571584e-003	3.291350e-009	-8.262018e-003
1.295464285714449e-003	2.993754e-009	-7.515105e-003
1.309907142857314e-003	2.726543e-009	-6.844316e-003
1.324350000000180e-003	2.489718e-009	-6.249650e-003
1.325650000000180e-003	2.468886e-009	-6.197359e-003
1.340264285714474e-003	2.250286e-009	-5.648634e-003
1.354878571428768e-003	2.047679e-009	-5.140053e-003
1.369492857143062e-003	1.861063e-009	-4.671613e-003
1.384107142857356e-003	1.690440e-009	-4.243317e-003
