Freq.	V(out)/V(in)
1.00000000000000e+001	(-6.00337557324502e+001dB,8.98741809980787e+001°)
1.04712854805090e+001	(-5.96337567503915e+001dB,8.98682513364324e+001°)
1.09647819614319e+001	(-5.92337578665418e+001dB,8.98620422192173e+001°)
1.14815362149688e+001	(-5.88337590903761e+001dB,8.98555404762130e+001°)
1.20226443461741e+001	(-5.84337604322836e+001dB,8.98487323165228e+001°)
1.25892541179417e+001	(-5.80337619036556e+001dB,8.98416032993247e+001°)
1.31825673855641e+001	(-5.76337635169826e+001dB,8.98341383032438e+001°)
1.38038426460289e+001	(-5.72337652859601e+001dB,8.98263214942829e+001°)
1.44543977074593e+001	(-5.68337672256050e+001dB,8.98181362922409e+001°)
1.51356124843621e+001	(-5.64337693523828e+001dB,8.98095653355496e+001°)
1.58489319246111e+001	(-5.60337716843477e+001dB,8.98005904444547e+001°)
1.65958690743756e+001	(-5.56337742412956e+001dB,8.97911925824610e+001°)
1.73780082874938e+001	(-5.52337770449323e+001dB,8.97813518159622e+001°)
1.81970085860999e+001	(-5.48337801190577e+001dB,8.97710472719693e+001°)
1.90546071796325e+001	(-5.44337834897680e+001dB,8.97602570938472e+001°)
1.99526231496888e+001	(-5.40337871856767e+001dB,8.97489583949671e+001°)
2.08929613085404e+001	(-5.36337912381581e+001dB,8.97371272101759e+001°)
2.18776162394956e+001	(-5.32337956816135e+001dB,8.97247384449803e+001°)
2.29086765276778e+001	(-5.28338005537627e+001dB,8.97117658223373e+001°)
2.39883291901949e+001	(-5.24338058959647e+001dB,8.96981818269404e+001°)
2.51188643150958e+001	(-5.20338117535690e+001dB,8.96839576468818e+001°)
2.63026799189539e+001	(-5.16338181762996e+001dB,8.96690631125684e+001°)
2.75422870333817e+001	(-5.12338252186780e+001dB,8.96534666327624e+001°)
2.88403150312661e+001	(-5.08338329404856e+001dB,8.96371351276119e+001°)
3.01995172040202e+001	(-5.04338414072711e+001dB,8.96200339585290e+001°)
3.16227766016838e+001	(-5.00338506909071e+001dB,8.96021268547691e+001°)
3.31131121482592e+001	(-4.96338608701996e+001dB,8.95833758365554e+001°)
3.46736850452532e+001	(-4.92338720315578e+001dB,8.95637411345875e+001°)
3.63078054770102e+001	(-4.88338842697267e+001dB,8.95431811057641e+001°)
3.80189396320562e+001	(-4.84338976885915e+001dB,8.95216521449429e+001°)
3.98107170553498e+001	(-4.80339124020596e+001dB,8.94991085925522e+001°)
4.16869383470336e+001	(-4.76339285350269e+001dB,8.94755026378602e+001°)
4.36515832240167e+001	(-4.72339462244383e+001dB,8.94507842176985e+001°)
4.57088189614876e+001	(-4.68339656204493e+001dB,8.94249009104296e+001°)
4.78630092322639e+001	(-4.64339868877010e+001dB,8.93977978249330e+001°)
5.01187233627273e+001	(-4.60340102067170e+001dB,8.93694174843821e+001°)
5.24807460249774e+001	(-4.56340357754352e+001dB,8.93396997045654e+001°)
5.49540873857626e+001	(-4.52340638108877e+001dB,8.93085814665013e+001°)
5.75439937337158e+001	(-4.48340945510427e+001dB,8.92759967830802e+001°)
6.02559586074359e+001	(-4.44341282568232e+001dB,8.92418765594568e+001°)
6.30957344480195e+001	(-4.40341652143211e+001dB,8.92061484469047e+001°)
6.60693448007598e+001	(-4.36342057372250e+001dB,8.91687366898296e+001°)
6.91830970918938e+001	(-4.32342501694810e+001dB,8.91295619656267e+001°)
7.24435960074992e+001	(-4.28342988882109e+001dB,8.90885412170525e+001°)
7.58577575029186e+001	(-4.24343523069114e+001dB,8.90455874767682e+001°)
7.94328234724284e+001	(-4.20344108789615e+001dB,8.90006096836951e+001°)
8.31763771102674e+001	(-4.16344751014681e+001dB,8.89535124908088e+001°)
8.70963589956084e+001	(-4.12345455194822e+001dB,8.89041960639831e+001°)
9.12010839355913e+001	(-4.08346227306212e+001dB,8.88525558714769e+001°)
9.54992586021439e+001	(-4.04347073901362e+001dB,8.87984824636411e+001°)
1.00000000000000e+002	(-4.00348002164683e+001dB,8.87418612424077e+001°)
1.04712854805090e+002	(-3.96349019973391e+001dB,8.86825722201003e+001°)
1.09647819614319e+002	(-3.92350135964279e+001dB,8.86204897670932e+001°)
1.14815362149689e+002	(-3.88351359606922e+001dB,8.85554823478245e+001°)
1.20226443461742e+002	(-3.84352701283923e+001dB,8.84874122446495e+001°)
1.25892541179417e+002	(-3.80354172378883e+001dB,8.84161352690050e+001°)
1.31825673855641e+002	(-3.76355785372834e+001dB,8.83415004593334e+001°)
1.38038426460289e+002	(-3.72357553949950e+001dB,8.82633497651978e+001°)
1.44543977074593e+002	(-3.68359493113420e+001dB,8.81815177170008e+001°)
1.51356124843621e+002	(-3.64361619312457e+001dB,8.80958310807005e+001°)
1.58489319246112e+002	(-3.60363950581517e+001dB,8.80061084969004e+001°)
1.65958690743757e+002	(-3.56366506692886e+001dB,8.79121601036726e+001°)
1.73780082874938e+002	(-3.52369309323915e+001dB,8.78137871424559e+001°)
1.81970085860999e+002	(-3.48372382240312e+001dB,8.77107815463579e+001°)
1.90546071796326e+002	(-3.44375751497004e+001dB,8.76029255101768e+001°)
1.99526231496889e+002	(-3.40379445658261e+001dB,8.74899910414445e+001°)
2.08929613085405e+002	(-3.36383496038906e+001dB,8.73717394917891e+001°)
2.18776162394956e+002	(-3.32387936968619e+001dB,8.72479210679050e+001°)
2.29086765276778e+002	(-3.28392806081520e+001dB,8.71182743214202e+001°)
2.39883291901950e+002	(-3.24398144633439e+001dB,8.69825256169523e+001°)
2.51188643150959e+002	(-3.20403997849480e+001dB,8.68403885776539e+001°)
2.63026799189540e+002	(-3.16410415304746e+001dB,8.66915635075621e+001°)
2.75422870333818e+002	(-3.12417451341348e+001dB,8.65357367900916e+001°)
2.88403150312662e+002	(-3.08425165525105e+001dB,8.63725802620408e+001°)
3.01995172040203e+002	(-3.04433623145660e+001dB,8.62017505625235e+001°)
3.16227766016840e+002	(-3.00442895764069e+001dB,8.60228884562941e+001°)
3.31131121482593e+002	(-2.96453061812281e+001dB,8.58356181310037e+001°)
3.46736850452534e+002	(-2.92464207249347e+001dB,8.56395464680088e+001°)
3.63078054770104e+002	(-2.88476426279571e+001dB,8.54342622864631e+001°)
3.80189396320564e+002	(-2.84489822138354e+001dB,8.52193355605478e+001°)
3.98107170553500e+002	(-2.80504507951889e+001dB,8.49943166098535e+001°)
4.16869383470338e+002	(-2.76520607677484e+001dB,8.47587352631076e+001°)
4.36515832240169e+002	(-2.72538257131804e+001dB,8.45120999956626e+001°)
4.57088189614878e+002	(-2.68557605114951e+001dB,8.42538970414187e+001°)
4.78630092322641e+002	(-2.64578814638976e+001dB,8.39835894801563e+001°)
5.01187233627276e+002	(-2.60602064270077e+001dB,8.37006163016119e+001°)
5.24807460249776e+002	(-2.56627549594494e+001dB,8.34043914480447e+001°)
5.49540873857628e+002	(-2.52655484818887e+001dB,8.30943028375231e+001°)
5.75439937337161e+002	(-2.48686104516777e+001dB,8.27697113707212e+001°)
6.02559586074362e+002	(-2.44719665533508e+001dB,8.24299499246588e+001°)
6.30957344480198e+002	(-2.40756449063023e+001dB,8.20743223375643e+001°)
6.60693448007601e+002	(-2.36796762910695e+001dB,8.17021023898936e+001°)
6.91830970918941e+002	(-2.32840943957310e+001dB,8.13125327875185e+001°)
7.24435960074995e+002	(-2.28889360840256e+001dB,8.09048241542168e+001°)
7.58577575029189e+002	(-2.24942416868842e+001dB,8.04781540418703e+001°)
7.94328234724287e+002	(-2.21000553191531e+001dB,8.00316659682294e+001°)
8.31763771102677e+002	(-2.17064252233676e+001dB,7.95644684937418e+001°)
8.70963589956087e+002	(-2.13134041425043e+001dB,7.90756343507972e+001°)
9.12010839355917e+002	(-2.09210497236980e+001dB,7.85641996408304e+001°)
9.54992586021443e+002	(-2.05294249549479e+001dB,7.80291631170633e+001°)
1.00000000000001e+003	(-2.01385986368532e+001dB,7.74694855732852e+001°)
1.04712854805091e+003	(-1.97486458914045e+001dB,7.68840893619818e+001°)
1.09647819614319e+003	(-1.93596487098025e+001dB,7.62718580683463e+001°)
1.14815362149689e+003	(-1.89716965411754e+001dB,7.56316363702611e+001°)
1.20226443461742e+003	(-1.85848869239068e+001dB,7.49622301182245e+001°)
1.25892541179418e+003	(-1.81993261610533e+001dB,7.42624066734318e+001°)
1.31825673855642e+003	(-1.78151300410142e+001dB,7.35308955467830e+001°)
1.38038426460290e+003	(-1.74324246041930e+001dB,7.27663893864724e+001°)
1.44543977074594e+003	(-1.70513469558514e+001dB,7.19675453669806e+001°)
1.51356124843622e+003	(-1.66720461246671e+001dB,7.11329870376750e+001°)
1.58489319246113e+003	(-1.62946839656620e+001dB,7.02613066947637e+001°)
1.65958690743757e+003	(-1.59194361051241e+001dB,6.93510683459078e+001°)
1.73780082874939e+003	(-1.55464929238993e+001dB,6.84008113422456e+001°)
1.81970085861000e+003	(-1.51760605739302e+001dB,6.74090547577061e+001°)
1.90546071796326e+003	(-1.48083620211686e+001dB,6.63743026000476e+001°)
1.99526231496890e+003	(-1.44436381059391e+001dB,6.52950499417363e+001°)
2.08929613085406e+003	(-1.40821486094836e+001dB,6.41697900611929e+001°)
2.18776162394957e+003	(-1.37241733127481e+001dB,6.29970226856425e+001°)
2.29086765276779e+003	(-1.33700130304844e+001dB,6.17752634252556e+001°)
2.39883291901951e+003	(-1.30199906004452e+001dB,6.05030544838732e+001°)
2.51188643150960e+003	(-1.26744518038698e+001dB,5.91789767236723e+001°)
2.63026799189541e+003	(-1.23337661896592e+001dB,5.78016631489143e+001°)
2.75422870333819e+003	(-1.19983277706791e+001dB,5.63698138566433e+001°)
2.88403150312663e+003	(-1.16685555566444e+001dB,5.48822124790782e+001°)
3.01995172040204e+003	(-1.13448938841617e+001dB,5.33377441127211e+001°)
3.16227766016841e+003	(-1.10278125009435e+001dB,5.17354146922411e+001°)
3.31131121482594e+003	(-1.07178063581884e+001dB,5.00743717225230e+001°)
3.46736850452535e+003	(-1.04153950629409e+001dB,4.83539262296953e+001°)
3.63078054770105e+003	(-1.01211219412177e+001dB,4.65735757316754e+001°)
3.80189396320565e+003	(-9.83555266317778e+000dB,4.47330279614674e+001°)
3.98107170553501e+003	(-9.55927338399941e+000dB,4.28322250034363e+001°)
4.16869383470339e+003	(-9.29288835877204e+000dB,4.08713674260793e+001°)
4.36515832240170e+003	(-9.03701699696431e+000dB,3.88509379172508e+001°)
4.57088189614880e+003	(-8.79229033215330e+000dB,3.67717238530204e+001°)
4.78630092322643e+003	(-8.55934689585929e+000dB,3.46348381638129e+001°)
5.01187233627277e+003	(-8.33882800052944e+000dB,3.24417378063059e+001°)
5.24807460249778e+003	(-8.13137245576099e+000dB,3.01942391123381e+001°)
5.49540873857630e+003	(-7.93761076332331e+000dB,2.78945292724966e+001°)
5.75439937337163e+003	(-7.75815885974436e+000dB,2.55451732274879e+001°)
6.02559586074364e+003	(-7.59361149922085e+000dB,2.31491152893982e+001°)
6.30957344480200e+003	(-7.44453539320177e+000dB,2.07096749006459e+001°)
6.60693448007603e+003	(-7.31146224479641e+000dB,1.82305360619786e+001°)
6.91830970918944e+003	(-7.19488183467170e+000dB,1.57157301209739e+001°)
7.24435960074998e+003	(-7.09523532882696e+000dB,1.31696118050918e+001°)
7.58577575029192e+003	(-7.01290898618648e+000dB,1.05968286014110e+001°)
7.94328234724290e+003	(-6.94822844421584e+000dB,8.00228381907613e+000°)
8.31763771102680e+003	(-6.90145375301968e+000dB,5.39109390826516e+000°)
8.70963589956090e+003	(-6.87277531239491e+000dB,2.76854083776296e+000°)
9.12010839355919e+003	(-6.86231084243997e+000dB,1.40020538175881e-001°)
9.54992586021446e+003	(-6.87010348749049e+000dB,-2.48901141366723e+000°)
1.00000000000001e+004	(-6.89612111684455e+000dB,-5.11309557273121e+000°)
1.04712854805091e+004	(-6.94025684587838e+000dB,-7.72682450488380e+000°)
1.09647819614320e+004	(-7.00233075995640e+000dB,-1.03248974012851e+001°)
1.14815362149690e+004	(-7.08209278333846e+000dB,-1.29021721185094e+001°)
1.20226443461743e+004	(-7.17922659833001e+000dB,-1.54537134479493e+001°)
1.25892541179418e+004	(-7.29335448818435e+000dB,-1.79748365802293e+001°)
1.31825673855642e+004	(-7.42404295230223e+000dB,-2.04611449307550e+001°)
1.38038426460290e+004	(-7.57080892509870e+000dB,-2.29085617182512e+001°)
1.44543977074594e+004	(-7.73312642095487e+000dB,-2.53133549253908e+001°)
1.51356124843623e+004	(-7.91043342679745e+000dB,-2.76721555058735e+001°)
1.58489319246113e+004	(-8.10213887039732e+000dB,-2.99819689233828e+001°)
1.65958690743758e+004	(-8.30762950537877e+000dB,-3.22401803046757e+001°)
1.73780082874940e+004	(-8.52627657183597e+000dB,-3.44445536542494e+001°)
1.81970085861000e+004	(-8.75744211286880e+000dB,-3.65932257070825e+001°)
1.90546071796327e+004	(-9.00048485076819e+000dB,-3.86846950871671e+001°)
1.99526231496890e+004	(-9.25476555059647e+000dB,-4.07178074937742e+001°)
2.08929613085406e+004	(-9.51965182229471e+000dB,-4.26917376574896e+001°)
2.18776162394958e+004	(-9.79452233422159e+000dB,-4.46059687984061e+001°)
2.29086765276780e+004	(-1.00787704304629e+001dB,-4.64602702847393e+001°)
2.39883291901952e+004	(-1.03718071608844e+001dB,-4.82546741372437e+001°)
2.51188643150961e+004	(-1.06730637465079e+001dB,-4.99894509587487e+001°)
2.63026799189541e+004	(-1.09819935133547e+001dB,-5.16650857941276e+001°)
2.75422870333820e+004	(-1.12980733355566e+001dB,-5.32822543486091e+001°)
2.88403150312664e+004	(-1.16208046335421e+001dB,-5.48417999153221e+001°)
3.01995172040205e+004	(-1.19497139758026e+001dB,-5.63447112892663e+001°)
3.16227766016842e+004	(-1.22843533334824e+001dB,-5.77921018766738e+001°)
3.31131121482595e+004	(-1.26243000362141e+001dB,-5.91851901473616e+001°)
3.46736850452536e+004	(-1.29691564755847e+001dB,-6.05252815239606e+001°)
3.63078054770106e+004	(-1.33185495997046e+001dB,-6.18137517560812e+001°)
3.80189396320566e+004	(-1.36721302388504e+001dB,-6.30520317894153e+001°)
3.98107170553502e+004	(-1.40295722983119e+001dB,-6.42415941090313e+001°)
4.16869383470341e+004	(-1.43905718505908e+001dB,-6.53839405120808e+001°)
4.36515832240172e+004	(-1.47548461551288e+001dB,-6.64805912470551e+001°)
4.57088189614881e+004	(-1.51221326299152e+001dB,-6.75330754438290e+001°)
4.78630092322645e+004	(-1.54921877957086e+001dB,-6.85429227502218e+001°)
5.01187233627279e+004	(-1.58647862102656e+001dB,-6.95116560859349e+001°)
5.24807460249780e+004	(-1.62397194069403e+001dB,-7.04407854228123e+001°)
5.49540873857632e+004	(-1.66167948492996e+001dB,-7.13318025007842e+001°)
5.75439937337165e+004	(-1.69958349110064e+001dB,-7.21861763910526e+001°)
6.02559586074366e+004	(-1.73766758881345e+001dB,-7.30053498216064e+001°)
6.30957344480202e+004	(-1.77591670492810e+001dB,-7.37907361846046e+001°)
6.60693448007605e+004	(-1.81431697273147e+001dB,-7.45437171502352e+001°)
6.91830970918946e+004	(-1.85285564553124e+001dB,-7.52656408170763e+001°)
7.24435960075000e+004	(-1.89152101481671e+001dB,-7.59578203345458e+001°)
7.58577575029194e+004	(-1.93030233304795e+001dB,-7.66215329385852e+001°)
7.94328234724293e+004	(-1.96918974106342e+001dB,-7.72580193471413e+001°)
8.31763771102683e+004	(-2.00817420004060e+001dB,-7.78684834672214e+001°)
8.70963589956093e+004	(-2.04724742789996e+001dB,-7.84540923702283e+001°)
9.12010839355923e+004	(-2.08640184001009e+001dB,-7.90159764969049e+001°)
9.54992586021450e+004	(-2.12563049402727e+001dB,-7.95552300575050e+001°)
1.00000000000001e+005	(-2.16492703868609e+001dB,-8.00729115967586e+001°)
1.04712854805091e+005	(-2.20428566634698e+001dB,-8.05700446968038e+001°)
1.09647819614320e+005	(-2.24370106910069e+001dB,-8.10476187945440e+001°)
1.14815362149690e+005	(-2.28316839822813e+001dB,-8.15065900928496e+001°)
1.20226443461743e+005	(-2.32268322681512e+001dB,-8.19478825476937e+001°)
1.25892541179419e+005	(-2.36224151532569e+001dB,-8.23723889157001e+001°)
1.31825673855643e+005	(-2.40183957994305e+001dB,-8.27809718487158e+001°)
1.38038426460291e+005	(-2.44147406349484e+001dB,-8.31744650239150e+001°)
1.44543977074595e+005	(-2.48114190878705e+001dB,-8.35536742996267e+001°)
1.51356124843623e+005	(-2.52084033418019e+001dB,-8.39193788885584e+001°)
1.58489319246114e+005	(-2.56056681125040e+001dB,-8.42723325414038e+001°)
1.65958690743759e+005	(-2.60031904438770e+001dB,-8.46132647349666e+001°)
1.73780082874940e+005	(-2.64009495219329e+001dB,-8.49428818599462e+001°)
1.81970085861001e+005	(-2.67989265054716e+001dB,-8.52618684044083e+001°)
1.90546071796328e+005	(-2.71971043722674e+001dB,-8.55708881297324e+001°)
1.99526231496891e+005	(-2.75954677796622e+001dB,-8.58705852364964e+001°)
2.08929613085407e+005	(-2.79940029385549e+001dB,-8.61615855183355e+001°)
2.18776162394959e+005	(-2.83926974998541e+001dB,-8.64444975023115e+001°)
2.29086765276781e+005	(-2.87915404525518e+001dB,-8.67199135747575e+001°)
2.39883291901953e+005	(-2.91905220326461e+001dB,-8.69884110919320e+001°)
2.51188643150962e+005	(-2.95896336422233e+001dB,-8.72505534751259e+001°)
2.63026799189542e+005	(-2.99888677780763e+001dB,-8.75068912901319e+001°)
2.75422870333821e+005	(-3.03882179693080e+001dB,-8.77579633112059e+001°)
2.88403150312665e+005	(-3.07876787234348e+001dB,-8.80042975698324e+001°)
3.01995172040206e+005	(-3.11872454805651e+001dB,-8.82464123887545e+001°)
3.16227766016843e+005	(-3.15869145752930e+001dB,-8.84848174018445e+001°)
3.31131121482596e+005	(-3.19866832060030e+001dB,-8.87200145604829e+001°)
3.46736850452537e+005	(-3.23865494113402e+001dB,-8.89524991271736e+001°)
3.63078054770107e+005	(-3.27865120536531e+001dB,-8.91827606571633e+001°)
3.80189396320567e+005	(-3.31865708092740e+001dB,-8.94112839688490e+001°)
3.98107170553504e+005	(-3.35867261655499e+001dB,-8.96385501037497e+001°)
4.16869383470342e+005	(-3.39869794245932e+001dB,-8.98650372767915e+001°)
4.36515832240173e+005	(-3.43873327137707e+001dB,-9.00912218176046e+001°)
4.57088189614883e+005	(-3.47877890029998e+001dB,-9.03175791034569e+001°)
4.78630092322646e+005	(-3.51883521289745e+001dB,-9.05445844843539e+001°)
5.01187233627281e+005	(-3.55890268264940e+001dB,-9.07727142007124e+001°)
5.24807460249781e+005	(-3.59898187671162e+001dB,-9.10024462938668e+001°)
5.49540873857634e+005	(-3.63907346054156e+001dB,-9.12342615094900e+001°)
5.75439937337167e+005	(-3.67917820331732e+001dB,-9.14686441938012e+001°)
6.02559586074368e+005	(-3.71929698418826e+001dB,-9.17060831821846e+001°)
6.30957344480204e+005	(-3.75943079940095e+001dB,-9.19470726795614e+001°)
6.60693448007607e+005	(-3.79958077034985e+001dB,-9.21921131315236e+001°)
6.91830970918948e+005	(-3.83974815260750e+001dB,-9.24417120848614e+001°)
7.24435960075003e+005	(-3.87993434599481e+001dB,-9.26963850356783e+001°)
7.58577575029197e+005	(-3.92014090575740e+001dB,-9.29566562627917e+001°)
7.94328234724295e+005	(-3.96036955491981e+001dB,-9.32230596435480e+001°)
8.31763771102686e+005	(-4.00062219789463e+001dB,-9.34961394485374e+001°)
8.70963589956096e+005	(-4.04090093542877e+001dB,-9.37764511109600e+001°)
9.12010839355926e+005	(-4.08120808097435e+001dB,-9.40645619655674e+001°)
9.54992586021453e+005	(-4.12154617857560e+001dB,-9.43610519511716e+001°)
1.00000000000000e+006	(-4.16191802236750e+001dB,-9.46665142696585e+001°)
