time	V(in)	V(out)
1.011987090549653e-006	-2.396420e-002	-1.575421e-006
1.023974181099307e-006	-4.792840e-002	2.354666e-005
1.035961271648960e-006	-7.189261e-002	7.536625e-005
1.047948362198613e-006	-9.585681e-002	1.538833e-004
1.059935452748266e-006	-1.198210e-001	2.590979e-004
1.071922543297920e-006	-1.437852e-001	3.910101e-004
1.083909633847573e-006	-1.677494e-001	5.496197e-004
1.168479973473473e-006	-3.368198e-001	2.303949e-003
1.268479973473473e-006	-5.367366e-001	5.735618e-003
1.368479973473473e-006	-7.366534e-001	1.048014e-002
1.400000000000000e-006	-7.996672e-001	1.232694e-002
1.436959946946946e-006	-8.735564e-001	1.484758e-002
1.500000000000000e-006	-9.995840e-001	1.949079e-002
1.544128037137138e-006	-9.995841e-001	2.312213e-002
2.252109746117547e-006	-9.995841e-001	8.178030e-002
2.960091455097957e-006	-9.995841e-001	1.401833e-001
3.668073164078366e-006	-9.995841e-001	1.983313e-001
4.376054873058774e-006	-9.995841e-001	2.562241e-001
5.084036582039184e-006	-9.995841e-001	3.138617e-001
5.792018291019593e-006	-9.995840e-001	3.712443e-001
6.500000000000000e-006	-9.995840e-001	4.283717e-001
6.533558575203788e-006	-9.324948e-001	4.309833e-001
6.567117150407575e-006	-8.654056e-001	4.334138e-001
6.600675725611363e-006	-7.983164e-001	4.356631e-001
6.634234300815151e-006	-7.312271e-001	4.377313e-001
6.667792876018939e-006	-6.641379e-001	4.396183e-001
6.701351451222726e-006	-5.970487e-001	4.413241e-001
6.734910026426514e-006	-5.299594e-001	4.428489e-001
6.900000000000001e-006	-1.999168e-001	4.479862e-001
7.000000000000001e-006	2.533620e-009	4.490739e-001
7.030000000000001e-006	1.409826e-008	4.490175e-001
8.890000000000003e-006	1.582595e-008	4.438409e-001
1.075000000000000e-005	1.711504e-008	4.387214e-001
1.261000000000001e-005	1.796555e-008	4.336589e-001
1.447000000000001e-005	1.837746e-008	4.286535e-001
1.633000000000001e-005	1.835079e-008	4.237052e-001
1.819000000000001e-005	1.788553e-008	4.188139e-001
2.005000000000001e-005	1.698167e-008	4.139796e-001
3.123571428571451e-005	1.584820e-008	3.863478e-001
4.242142857142903e-005	1.477992e-008	3.603055e-001
5.360714285714353e-005	1.377685e-008	3.358526e-001
6.479285714285805e-005	1.283899e-008	3.129893e-001
7.597857142857255e-005	1.196632e-008	2.917155e-001
8.716428571428706e-005	1.115886e-008	2.720313e-001
9.835000000000155e-005	1.041661e-008	2.539365e-001
9.845000000000155e-005	1.041011e-008	2.537781e-001
1.130642857142876e-004	9.517586e-009	2.320202e-001
1.276785714285737e-004	8.688624e-009	2.118117e-001
1.422928571428598e-004	7.923221e-009	1.931527e-001
1.569071428571458e-004	7.221379e-009	1.760432e-001
1.715214285714319e-004	6.583097e-009	1.604831e-001
1.861357142857180e-004	6.008376e-009	1.464725e-001
2.007500000000040e-004	5.497214e-009	1.340114e-001
2.008500000000040e-004	5.493784e-009	1.339277e-001
2.154642857142901e-004	5.022768e-009	1.224453e-001
2.300785714285762e-004	4.585295e-009	1.117806e-001
2.446928571428622e-004	4.181366e-009	1.019336e-001
2.593071428571483e-004	3.810979e-009	9.290425e-002
2.739214285714344e-004	3.474135e-009	8.469265e-002
2.885357142857205e-004	3.170834e-009	7.729876e-002
3.031500000000065e-004	2.901075e-009	7.072258e-002
3.032500000000065e-004	2.899265e-009	7.067845e-002
3.178642857142926e-004	2.650694e-009	6.461876e-002
3.324785714285787e-004	2.419824e-009	5.899060e-002
3.470928571428647e-004	2.206656e-009	5.379398e-002
3.617071428571508e-004	2.011189e-009	4.902889e-002
3.763214285714369e-004	1.833425e-009	4.469533e-002
3.909357142857230e-004	1.673362e-009	4.079331e-002
4.055500000000090e-004	1.531001e-009	3.732283e-002
4.056500000000090e-004	1.530046e-009	3.729954e-002
4.202642857142936e-004	1.398866e-009	3.410162e-002
4.348785714285781e-004	1.277027e-009	3.113144e-002
4.494928571428627e-004	1.164531e-009	2.838900e-002
4.641071428571472e-004	1.061376e-009	2.587429e-002
4.787214285714318e-004	9.675636e-010	2.358732e-002
4.933357142857163e-004	8.830928e-010	2.152809e-002
5.079500000000008e-004	8.079638e-010	1.969659e-002
5.080500000000008e-004	8.074597e-010	1.968430e-002
5.226642857142789e-004	7.382313e-010	1.799664e-002
5.372785714285571e-004	6.739329e-010	1.642917e-002
5.518928571428352e-004	6.145645e-010	1.498189e-002
5.665071428571134e-004	5.601262e-010	1.365479e-002
5.811214285713916e-004	5.106179e-010	1.244787e-002
5.957357142856697e-004	4.660396e-010	1.136114e-002
6.103499999999478e-004	4.263913e-010	1.039459e-002
6.104499999999478e-004	4.261253e-010	1.038811e-002
6.250642857142259e-004	3.895910e-010	9.497471e-003
6.396785714285041e-004	3.556584e-010	8.670261e-003
6.542928571427822e-004	3.243276e-010	7.906477e-003
6.689071428570603e-004	2.955986e-010	7.206118e-003
6.835214285713386e-004	2.694713e-010	6.569186e-003
6.981357142856167e-004	2.459457e-010	5.995679e-003
7.127499999998948e-004	2.250219e-010	5.485597e-003
7.128499999998947e-004	2.248815e-010	5.482174e-003
7.274642857141729e-004	2.056011e-010	5.012154e-003
7.420785714284511e-004	1.876936e-010	4.575606e-003
7.566928571427292e-004	1.711593e-010	4.172530e-003
7.713071428570073e-004	1.559979e-010	3.802926e-003
7.859214285712855e-004	1.422096e-010	3.466794e-003
8.005357142855636e-004	1.297943e-010	3.164134e-003
8.151499999998418e-004	1.187521e-010	2.894945e-003
8.152499999998417e-004	1.186780e-010	2.893139e-003
8.298642857141198e-004	1.085030e-010	2.645093e-003
8.444785714283981e-004	9.905263e-011	2.414710e-003
8.590928571426762e-004	9.032684e-011	2.201993e-003
8.737071428569543e-004	8.232566e-011	2.006940e-003
8.883214285712325e-004	7.504908e-011	1.829551e-003
9.029357142855106e-004	6.849710e-011	1.669826e-003
9.175499999997887e-004	6.266972e-011	1.527766e-003
9.176499999997887e-004	6.263061e-011	1.526813e-003
9.295571428569617e-004	5.819603e-011	1.418706e-003
9.414642857141348e-004	5.402989e-011	1.317144e-003
9.533714285713078e-004	5.013218e-011	1.222125e-003
9.652785714284809e-004	4.650291e-011	1.133651e-003
9.771857142856538e-004	4.314208e-011	1.051720e-003
9.890928571428270e-004	4.004969e-011	9.763337e-004
1.001000000000000e-003	3.722574e-011	9.074913e-004
1.001030000000000e-003	-5.997503e-002	9.656460e-004
1.001061666623026e-003	-1.232819e-001	1.147626e-003
1.001093896436540e-003	-1.877147e-001	1.524354e-003
1.001158356063569e-003	-3.165804e-001	2.886930e-003
1.001258356063569e-003	-5.164972e-001	6.233426e-003
1.001358356063569e-003	-7.164140e-001	1.085126e-002
1.001400000000000e-003	-7.996672e-001	1.322101e-002
1.001416712127139e-003	-8.330776e-001	1.430504e-002
1.001450136381417e-003	-8.998983e-001	1.666951e-002
1.001500000000000e-003	-9.995840e-001	2.040375e-002
1.001534904533008e-003	-9.995841e-001	2.327115e-002
1.002244203885436e-003	-9.995841e-001	8.203659e-002
1.002953503237863e-003	-9.995841e-001	1.405462e-001
1.003662802590291e-003	-9.995841e-001	1.988000e-001
1.004372101942718e-003	-9.995841e-001	2.567979e-001
1.005081401295145e-003	-9.995841e-001	3.145400e-001
1.005790700647573e-003	-9.995840e-001	3.720262e-001
1.006500000000000e-003	-9.995840e-001	4.292566e-001
1.006530192679387e-003	-9.392238e-001	4.316189e-001
1.006560385358773e-003	-8.788635e-001	4.338315e-001
1.006590578038160e-003	-8.185033e-001	4.358945e-001
1.006620770717546e-003	-7.581430e-001	4.378079e-001
1.006650963396933e-003	-6.977828e-001	4.395717e-001
1.006681156076319e-003	-6.374226e-001	4.411858e-001
1.006711348755706e-003	-5.770624e-001	4.426504e-001
1.006900000000000e-003	-1.999168e-001	4.487714e-001
1.007000000000000e-003	2.565214e-009	4.499565e-001
1.007030000000000e-003	1.413321e-008	4.499000e-001
1.008590000000001e-003	1.589526e-008	4.455461e-001
1.010150000000002e-003	1.721788e-008	4.412323e-001
1.011710000000003e-003	1.810107e-008	4.369587e-001
1.013270000000004e-003	1.854483e-008	4.327253e-001
1.014830000000005e-003	1.854916e-008	4.285321e-001
1.016390000000005e-003	1.811407e-008	4.243790e-001
1.017950000000006e-003	1.723955e-008	4.202661e-001
1.018050000000006e-003	1.722879e-008	4.200039e-001
1.032664285714300e-003	1.575166e-008	3.839944e-001
1.047278571428594e-003	1.437972e-008	3.505493e-001
1.061892857142888e-003	1.311297e-008	3.196686e-001
1.076507142857182e-003	1.195142e-008	2.913522e-001
1.091121428571476e-003	1.089506e-008	2.656002e-001
1.105735714285770e-003	9.943891e-009	2.424126e-001
1.120350000000064e-003	9.097915e-009	2.217894e-001
1.120450000000064e-003	9.092238e-009	2.216510e-001
1.135064285714358e-003	8.312705e-009	2.026475e-001
1.149678571428652e-003	7.588686e-009	1.849974e-001
1.164292857142946e-003	6.920180e-009	1.687005e-001
1.178907142857240e-003	6.307188e-009	1.537569e-001
1.193521428571534e-003	5.749709e-009	1.401667e-001
1.208135714285828e-003	5.247744e-009	1.279298e-001
1.222750000000122e-003	4.801293e-009	1.170462e-001
1.222850000000122e-003	4.798297e-009	1.169732e-001
1.237464285714416e-003	4.386910e-009	1.069443e-001
1.252078571428710e-003	4.004819e-009	9.762971e-002
1.266692857143004e-003	3.652025e-009	8.902927e-002
1.281307142857298e-003	3.328528e-009	8.114303e-002
1.295921428571592e-003	3.034326e-009	7.397098e-002
1.310535714285886e-003	2.769422e-009	6.751312e-002
1.325150000000180e-003	2.533814e-009	6.176945e-002
1.325250000000180e-003	2.532233e-009	6.173091e-002
1.339864285714474e-003	2.315129e-009	5.643834e-002
1.354478571428768e-003	2.113486e-009	5.152268e-002
1.369092857143062e-003	1.927304e-009	4.698392e-002
1.383707142857356e-003	1.756583e-009	4.282207e-002
1.398321428571650e-003	1.601322e-009	3.903712e-002
1.412935714285944e-003	1.461523e-009	3.562908e-002
1.427550000000238e-003	1.337184e-009	3.259794e-002
1.427650000000238e-003	1.336349e-009	3.257760e-002
1.442264285714532e-003	1.221776e-009	2.978453e-002
1.456878571428826e-003	1.115362e-009	2.719036e-002
1.471492857143120e-003	1.017107e-009	2.479509e-002
1.486107142857414e-003	9.270113e-010	2.259873e-002
1.500721428571708e-003	8.450748e-010	2.060128e-002
1.515335714286002e-003	7.712976e-010	1.880274e-002
1.529950000000296e-003	7.056796e-010	1.720310e-002
1.530050000000296e-003	7.052393e-010	1.719236e-002
1.544664285714590e-003	6.447748e-010	1.571836e-002
1.559278571428884e-003	5.886163e-010	1.434932e-002
1.573892857143178e-003	5.367637e-010	1.308526e-002
1.588507142857472e-003	4.892170e-010	1.192616e-002
1.603121428571766e-003	4.459762e-010	1.087203e-002
1.617735714286060e-003	4.070413e-010	9.922875e-003
1.632350000000354e-003	3.724123e-010	9.078688e-003
1.632450000000354e-003	3.721799e-010	9.073023e-003
1.647064285714648e-003	3.402707e-010	8.295138e-003
1.661678571428942e-003	3.106338e-010	7.572649e-003
1.676292857143236e-003	2.832693e-010	6.905556e-003
1.690907142857530e-003	2.581772e-010	6.293859e-003
1.705521428571824e-003	2.353575e-010	5.737559e-003
1.720135714286118e-003	2.148102e-010	5.236655e-003
1.734750000000412e-003	1.965352e-010	4.791148e-003
1.734850000000412e-003	1.964126e-010	4.788158e-003
1.749464285714706e-003	1.795730e-010	4.377640e-003
1.764078571429000e-003	1.639325e-010	3.996357e-003
1.778692857143294e-003	1.494913e-010	3.644308e-003
1.793307142857588e-003	1.362493e-010	3.321494e-003
1.807921428571882e-003	1.242066e-010	3.027915e-003
1.822535714286176e-003	1.133630e-010	2.763570e-003
1.837150000000470e-003	1.037187e-010	2.528459e-003
1.837250000000470e-003	1.036539e-010	2.526882e-003
1.851864285714764e-003	9.476706e-011	2.310237e-003
1.866478571429058e-003	8.651305e-011	2.109020e-003
1.881092857143352e-003	7.889191e-011	1.923231e-003
1.895707142857646e-003	7.190363e-011	1.752871e-003
1.910321428571940e-003	6.554823e-011	1.597939e-003
1.924935714286234e-003	5.982570e-011	1.458434e-003
1.939550000000528e-003	5.473604e-011	1.334358e-003
1.939650000000528e-003	5.470188e-011	1.333526e-003
1.948414286251697e-003	1.226914e-006	1.262998e-003
1.957178572502866e-003	1.686996e-006	1.195777e-003
1.965942858754035e-003	1.380301e-006	1.131863e-003
1.974707145005205e-003	3.068284e-007	1.071255e-003
1.983471431256373e-003	-1.533422e-006	1.013955e-003
1.992235717507542e-003	-4.140449e-006	9.599614e-004
2.001000003758711e-003	-7.514254e-006	9.092747e-004
2.001017606881227e-003	-3.519911e-002	9.158985e-004
2.001035210003742e-003	-7.039070e-002	9.788849e-004
2.001052813126257e-003	-1.055823e-001	1.098234e-003
2.001070416248772e-003	-1.407739e-001	1.273946e-003
2.001088019371287e-003	-1.759655e-001	1.506020e-003
2.001105622493803e-003	-2.111571e-001	1.794457e-003
2.001123225616318e-003	-2.463487e-001	2.139257e-003
2.001223225616318e-003	-4.462655e-001	4.913791e-003
2.001323225616318e-003	-6.461824e-001	9.093927e-003
2.001400000000000e-003	-7.996672e-001	1.350413e-002
2.001500000000000e-003	-9.995840e-001	2.039714e-002
2.001570000000000e-003	-9.995841e-001	2.617310e-002
2.002274285714286e-003	-9.995841e-001	8.451382e-002
2.002978571428571e-003	-9.995841e-001	1.426018e-001
2.003682857142857e-003	-9.995841e-001	2.004370e-001
2.004387142857143e-003	-9.995841e-001	2.580194e-001
2.005091428571428e-003	-9.995841e-001	3.153491e-001
2.005795714285714e-003	-9.995840e-001	3.724260e-001
2.006500000000000e-003	-9.995840e-001	4.292502e-001
2.006570000000000e-003	-8.596423e-001	4.344841e-001
2.006749999999999e-003	-4.997920e-001	4.443641e-001
2.006900000000000e-003	-1.999168e-001	4.489186e-001
2.007000000000000e-003	2.570820e-009	4.499429e-001
2.007030000000000e-003	1.413437e-008	4.498863e-001
2.008889999999997e-003	1.586143e-008	4.446997e-001
2.010749999999994e-003	1.714996e-008	4.395703e-001
2.012609999999991e-003	1.799995e-008	4.344980e-001
2.014469999999988e-003	1.841140e-008	4.294830e-001
2.016329999999985e-003	1.838431e-008	4.245250e-001
2.018189999999982e-003	1.791869e-008	4.196243e-001
2.020049999999979e-003	1.701453e-008	4.147807e-001
2.038549999999949e-003	1.515900e-008	3.695466e-001
2.053164285714212e-003	1.385932e-008	3.378631e-001
2.067778571428474e-003	1.265220e-008	3.084359e-001
2.082392857142736e-003	1.153764e-008	2.812651e-001
2.097007142856999e-003	1.051563e-008	2.563505e-001
2.111621428571261e-003	9.586176e-009	2.336923e-001
2.126235714285523e-003	8.749277e-009	2.132903e-001
2.140849999999786e-003	8.004934e-009	1.951447e-001
2.140949999999785e-003	7.999938e-009	1.950229e-001
2.155564285714048e-003	7.314055e-009	1.783024e-001
2.170178571428310e-003	6.677016e-009	1.627726e-001
2.184792857142572e-003	6.088821e-009	1.484336e-001
2.199407142856834e-003	5.549471e-009	1.352853e-001
2.214021428571097e-003	5.058966e-009	1.233277e-001
2.228635714285359e-003	4.617305e-009	1.125609e-001
2.243249999999621e-003	4.224488e-009	1.029848e-001
2.243349999999621e-003	4.221852e-009	1.029205e-001
2.257964285713883e-003	3.859887e-009	9.409654e-002
2.272578571428146e-003	3.523699e-009	8.590093e-002
2.287192857142408e-003	3.213288e-009	7.833371e-002
2.301807142856670e-003	2.928654e-009	7.139488e-002
2.316421428570933e-003	2.669797e-009	6.508445e-002
2.331035714285195e-003	2.436716e-009	5.940241e-002
2.345649999999457e-003	2.229413e-009	5.434876e-002
2.345749999999457e-003	2.228022e-009	5.431484e-002
2.360364285713719e-003	2.037000e-009	4.965810e-002
2.374978571427982e-003	1.859582e-009	4.533298e-002
2.389592857142244e-003	1.695767e-009	4.133949e-002
2.404207142856506e-003	1.545555e-009	3.767763e-002
2.418821428570769e-003	1.408947e-009	3.434739e-002
2.433435714285031e-003	1.285942e-009	3.134877e-002
2.448049999999293e-003	1.176541e-009	2.868178e-002
2.448149999999293e-003	1.175807e-009	2.866388e-002
2.462764285713555e-003	1.074998e-009	2.620635e-002
2.477378571427818e-003	9.813676e-010	2.392383e-002
2.491992857142080e-003	8.949166e-010	2.181633e-002
2.506607142856342e-003	8.156445e-010	1.988383e-002
2.521221428570605e-003	7.435515e-010	1.812634e-002
2.535835714284867e-003	6.786375e-010	1.654386e-002
2.550449999999129e-003	6.209026e-010	1.513640e-002
2.550549999999129e-003	6.205151e-010	1.512695e-002
2.565164285713391e-003	5.673146e-010	1.383003e-002
2.579778571427654e-003	5.179027e-010	1.262546e-002
2.594392857141916e-003	4.722794e-010	1.151325e-002
2.609007142856178e-003	4.304447e-010	1.049341e-002
2.623621428570441e-003	3.923987e-010	9.565917e-003
2.638235714284703e-003	3.581412e-010	8.730787e-003
2.652849999998965e-003	3.276724e-010	7.988017e-003
2.652949999998965e-003	3.274679e-010	7.983033e-003
2.667564285713227e-003	2.993921e-010	7.298599e-003
2.682178571427490e-003	2.733157e-010	6.662906e-003
2.696792857141752e-003	2.492387e-010	6.075954e-003
2.711407142856014e-003	2.271610e-010	5.537744e-003
2.726021428570277e-003	2.070828e-010	5.048275e-003
2.740635714284539e-003	1.890039e-010	4.607548e-003
2.755249999998801e-003	1.729244e-010	4.215561e-003
2.755349999998801e-003	1.728165e-010	4.212931e-003
2.769964285713063e-003	1.579999e-010	3.851731e-003
2.784578571427326e-003	1.442384e-010	3.516253e-003
2.799192857141588e-003	1.315321e-010	3.206498e-003
2.813807142855850e-003	1.198810e-010	2.922465e-003
2.828421428570113e-003	1.092850e-010	2.664155e-003
2.843035714284375e-003	9.974410e-011	2.431567e-003
2.857649999998637e-003	9.125839e-011	2.224702e-003
2.857749999998637e-003	9.120144e-011	2.223314e-003
2.872364285712899e-003	8.338219e-011	2.032696e-003
2.886978571427162e-003	7.611978e-011	1.855652e-003
2.901592857141424e-003	6.941420e-011	1.692183e-003
2.916207142855686e-003	6.326547e-011	1.542289e-003
2.930821428569949e-003	5.767358e-011	1.405970e-003
2.945435714284211e-003	5.263852e-011	1.283225e-003
2.960049999998473e-003	4.816031e-011	1.174055e-003
2.960149999998473e-003	4.813026e-011	1.173322e-003
3.001000000000000e-003	3.729777e-011	9.092472e-004
3.001030000000000e-003	-5.997503e-002	9.674176e-004
3.001061687618689e-003	-1.233239e-001	1.149597e-003
3.001093938007456e-003	-1.877979e-001	1.526759e-003
3.001158438784991e-003	-3.167458e-001	2.890815e-003
3.001258438784991e-003	-5.166625e-001	6.238513e-003
3.001358438784991e-003	-7.165794e-001	1.085738e-002
3.001400000000000e-003	-7.996672e-001	1.322299e-002
3.001416877569981e-003	-8.334084e-001	1.431827e-002
3.001450632709943e-003	-9.008905e-001	1.670707e-002
3.001500000000000e-003	-9.995840e-001	2.040550e-002
3.001534557103040e-003	-9.995841e-001	2.324415e-002
3.002243906088320e-003	-9.995841e-001	8.201377e-002
3.002953255073600e-003	-9.995841e-001	1.405275e-001
3.003662604058880e-003	-9.995841e-001	1.987854e-001
3.004371953044160e-003	-9.995841e-001	2.567874e-001
3.005081302029440e-003	-9.995841e-001	3.145336e-001
3.005790651014720e-003	-9.995840e-001	3.720239e-001
3.006500000000000e-003	-9.995840e-001	4.292583e-001
3.006527840183185e-003	-9.439268e-001	4.314441e-001
3.006555680366371e-003	-8.882696e-001	4.335006e-001
3.006583520549556e-003	-8.326124e-001	4.354278e-001
3.006611360732742e-003	-7.769552e-001	4.372259e-001
3.006639200915927e-003	-7.212980e-001	4.388948e-001
3.006667041099113e-003	-6.656408e-001	4.404345e-001
3.006694881282298e-003	-6.099836e-001	4.418450e-001
3.006738469670541e-003	-5.228431e-001	4.439856e-001
3.006782058058784e-003	-4.357026e-001	4.457991e-001
3.006825646447027e-003	-3.485621e-001	4.472853e-001
3.006869234835271e-003	-2.614216e-001	4.484444e-001
3.006912823223514e-003	-1.742810e-001	4.492763e-001
3.006956411611757e-003	-8.714052e-002	4.497809e-001
3.007000000000000e-003	2.568083e-009	4.499584e-001
3.007028664819136e-003	1.477981e-008	4.499072e-001
3.014556990444822e-003	1.558724e-008	4.293599e-001
3.022085316070510e-003	1.605422e-008	4.096566e-001
3.029613641696196e-003	1.618076e-008	3.907973e-001
3.037141967321883e-003	1.596686e-008	3.727822e-001
3.044670292947570e-003	1.541251e-008	3.556111e-001
3.052198618573257e-003	1.451772e-008	3.392840e-001
3.059726944198944e-003	1.328249e-008	3.238010e-001
3.059826944198944e-003	1.327420e-008	3.235990e-001
3.074441229913206e-003	1.213612e-008	2.958549e-001
3.089055515627469e-003	1.107909e-008	2.700865e-001
3.103669801341731e-003	1.010311e-008	2.462940e-001
3.118284087055993e-003	9.208169e-009	2.244772e-001
3.132898372770255e-003	8.394279e-009	2.046361e-001
3.147512658484518e-003	7.661436e-009	1.867709e-001
3.162126944198780e-003	7.009640e-009	1.708814e-001
3.162226944198780e-003	7.005266e-009	1.707747e-001
3.176841229913042e-003	6.404662e-009	1.561332e-001
3.191455515627305e-003	5.846829e-009	1.425343e-001
3.206069801341567e-003	5.331768e-009	1.299781e-001
